Time [s], Analyzer Name, Decoded Protocol Result
0.000421484000000,I2C,Setup Write to [0x52] + ACK
0.000444756000000,I2C,0x7F + ACK
0.000467040000000,I2C,0xFF + ACK
0.000489340000000,I2C,0x00 + ACK
0.000517820000000,I2C,Setup Write to [0x52] + ACK
0.000540988000000,I2C,0x00 + ACK
0.000563292000000,I2C,0x00 + ACK
0.000589404000000,I2C,Setup Read to [0x53] + ACK
0.000611844000000,I2C,0xF0 + NAK
0.000641084000000,I2C,Setup Write to [0x52] + ACK
0.000664180000000,I2C,0x00 + ACK
0.000686464000000,I2C,0x01 + ACK
0.000712576000000,I2C,Setup Read to [0x53] + ACK
0.000735036000000,I2C,0x0C + NAK
0.000764108000000,I2C,Setup Write to [0x52] + ACK
0.000787216000000,I2C,0x7F + ACK
0.000809492000000,I2C,0xFF + ACK
0.000831784000000,I2C,0x02 + ACK
0.000861552000000,I2C,Setup Write to [0x52] + ACK
0.000884800000000,I2C,0x7F + ACK
0.000907084000000,I2C,0xFF + ACK
0.000929372000000,I2C,0x00 + ACK
0.000958420000000,I2C,Setup Write to [0x52] + ACK
0.000981660000000,I2C,0x00 + ACK
0.001003944000000,I2C,0x09 + ACK
0.001026232000000,I2C,0x04 + ACK
0.001054556000000,I2C,Setup Write to [0x52] + ACK
0.001077708000000,I2C,0x00 + ACK
0.001099992000000,I2C,0x0F + ACK
0.001122284000000,I2C,0x40 + ACK
0.001150592000000,I2C,Setup Write to [0x52] + ACK
0.001173740000000,I2C,0x00 + ACK
0.001196028000000,I2C,0x0A + ACK
0.001218316000000,I2C,0x03 + ACK
0.001246784000000,I2C,Setup Write to [0x52] + ACK
0.001269960000000,I2C,0x7F + ACK
0.001292252000000,I2C,0xFF + ACK
0.001318368000000,I2C,Setup Read to [0x53] + ACK
0.001340820000000,I2C,0x00 + NAK
0.001369880000000,I2C,Setup Write to [0x52] + ACK
0.001393004000000,I2C,0x00 + ACK
0.001415300000000,I2C,0x0C + ACK
0.001437592000000,I2C,0x01 + ACK
0.001465968000000,I2C,Setup Write to [0x52] + ACK
0.001489136000000,I2C,0x01 + ACK
0.001511428000000,I2C,0x01 + ACK
0.001533716000000,I2C,0x00 + ACK
0.001562068000000,I2C,Setup Write to [0x52] + ACK
0.001585228000000,I2C,0x01 + ACK
0.001607520000000,I2C,0x02 + ACK
0.001629824000000,I2C,0x00 + ACK
0.001658168000000,I2C,Setup Write to [0x52] + ACK
0.001681340000000,I2C,0x01 + ACK
0.001703624000000,I2C,0x0A + ACK
0.001725924000000,I2C,0x01 + ACK
0.001754272000000,I2C,Setup Write to [0x52] + ACK
0.001777436000000,I2C,0x40 + ACK
0.001799712000000,I2C,0x02 + ACK
0.001822004000000,I2C,0x01 + ACK
0.001850336000000,I2C,Setup Write to [0x52] + ACK
0.001873492000000,I2C,0x40 + ACK
0.001895780000000,I2C,0x02 + ACK
0.001918072000000,I2C,0x00 + ACK
0.001947128000000,I2C,Setup Write to [0x52] + ACK
0.001970364000000,I2C,0x01 + ACK
0.001992680000000,I2C,0x0A + ACK
0.002014972000000,I2C,0x03 + ACK
0.002043312000000,I2C,Setup Write to [0x52] + ACK
0.002066476000000,I2C,0x01 + ACK
0.002088764000000,I2C,0x03 + ACK
0.002111056000000,I2C,0x01 + ACK
0.002139400000000,I2C,Setup Write to [0x52] + ACK
0.002162568000000,I2C,0x00 + ACK
0.002184852000000,I2C,0x0C + ACK
0.002207144000000,I2C,0x00 + ACK
0.002235480000000,I2C,Setup Write to [0x52] + ACK
0.002258648000000,I2C,0x00 + ACK
0.002280944000000,I2C,0x0F + ACK
0.002303228000000,I2C,0x43 + ACK
0.002929064000000,I2C,Setup Write to [0x52] + ACK
0.002952352000000,I2C,0x00 + ACK
0.002974636000000,I2C,0x0F + ACK
0.002996920000000,I2C,0x40 + ACK
0.003025244000000,I2C,Setup Write to [0x52] + ACK
0.003048396000000,I2C,0x00 + ACK
0.003070680000000,I2C,0x0A + ACK
0.003092968000000,I2C,0x01 + ACK
0.102012720000000,I2C,Setup Write to [0x52] + ACK
0.102035976000000,I2C,0x7F + ACK
0.102058260000000,I2C,0xFF + ACK
0.102080548000000,I2C,0x00 + ACK
0.102109448000000,I2C,Setup Write to [0x52] + ACK
0.102132656000000,I2C,0x00 + ACK
0.102154948000000,I2C,0x06 + ACK
0.102181060000000,I2C,Setup Read to [0x53] + ACK
0.102203492000000,I2C,0x01 + NAK
0.111921344000000,I2C,Setup Write to [0x52] + ACK
0.111944640000000,I2C,0x00 + ACK
0.111966932000000,I2C,0x0E + ACK
0.111989232000000,I2C,0x01 + ACK
0.112017628000000,I2C,Setup Write to [0x52] + ACK
0.112040788000000,I2C,0x7F + ACK
0.112063072000000,I2C,0xFF + ACK
0.112085364000000,I2C,0x02 + ACK
0.112113704000000,I2C,Setup Write to [0x52] + ACK
0.112136868000000,I2C,0x7F + ACK
0.112159160000000,I2C,0xFF + ACK
0.112181444000000,I2C,0x01 + ACK
0.112209812000000,I2C,Setup Write to [0x52] + ACK
0.112232976000000,I2C,0x00 + ACK
0.112255276000000,I2C,0x06 + ACK
0.112277564000000,I2C,0x03 + ACK
0.112306468000000,I2C,Setup Write to [0x52] + ACK
0.112329656000000,I2C,0x00 + ACK
0.112351944000000,I2C,0x21 + ACK
0.112378068000000,I2C,Setup Read to [0x53] + ACK
0.112400508000000,I2C,0x10 + NAK
0.121828976000000,I2C,Setup Write to [0x52] + ACK
0.121852224000000,I2C,0x7F + ACK
0.121874512000000,I2C,0xFF + ACK
0.121896784000000,I2C,0x00 + ACK
0.121925320000000,I2C,Setup Write to [0x52] + ACK
0.121948488000000,I2C,0x7F + ACK
0.121970764000000,I2C,0xFF + ACK
0.121996876000000,I2C,Setup Read to [0x53] + ACK
0.122019292000000,I2C,0x00 + NAK
0.122048348000000,I2C,Setup Write to [0x52] + ACK
0.122071468000000,I2C,0x00 + ACK
0.122093752000000,I2C,0x0C + ACK
0.122116040000000,I2C,0x01 + ACK
0.122144424000000,I2C,Setup Write to [0x52] + ACK
0.122167584000000,I2C,0x7F + ACK
0.122189880000000,I2C,0xFF + ACK
0.122212164000000,I2C,0x00 + ACK
0.122240496000000,I2C,Setup Write to [0x52] + ACK
0.122263648000000,I2C,0x01 + ACK
0.122285920000000,I2C,0x01 + ACK
0.122308200000000,I2C,0x00 + ACK
0.122336516000000,I2C,Setup Write to [0x52] + ACK
0.122359656000000,I2C,0x01 + ACK
0.122381944000000,I2C,0x02 + ACK
0.122404228000000,I2C,0x00 + ACK
0.122432556000000,I2C,Setup Write to [0x52] + ACK
0.122455716000000,I2C,0x01 + ACK
0.122478008000000,I2C,0x0A + ACK
0.122500296000000,I2C,0x01 + ACK
0.122528632000000,I2C,Setup Write to [0x52] + ACK
0.122551780000000,I2C,0x40 + ACK
0.122574068000000,I2C,0x02 + ACK
0.122596360000000,I2C,0x01 + ACK
0.122624696000000,I2C,Setup Write to [0x52] + ACK
0.122647856000000,I2C,0x40 + ACK
0.122670144000000,I2C,0x02 + ACK
0.122692420000000,I2C,0x00 + ACK
0.122720760000000,I2C,Setup Write to [0x52] + ACK
0.122743924000000,I2C,0x01 + ACK
0.122766232000000,I2C,0x0A + ACK
0.122788524000000,I2C,0x03 + ACK
0.122817548000000,I2C,Setup Write to [0x52] + ACK
0.122840784000000,I2C,0x01 + ACK
0.122863080000000,I2C,0x03 + ACK
0.122885368000000,I2C,0x01 + ACK
0.122913696000000,I2C,Setup Write to [0x52] + ACK
0.122936856000000,I2C,0x40 + ACK
0.122959148000000,I2C,0x0F + ACK
0.122981440000000,I2C,0x00 + ACK
0.123009768000000,I2C,Setup Write to [0x52] + ACK
0.123032944000000,I2C,0x02 + ACK
0.123055232000000,I2C,0x1A + ACK
0.123077524000000,I2C,0x43 + ACK
0.123105860000000,I2C,Setup Write to [0x52] + ACK
0.123129020000000,I2C,0x02 + ACK
0.123151308000000,I2C,0x1A + ACK
0.123173608000000,I2C,0x03 + ACK
0.123201924000000,I2C,Setup Write to [0x52] + ACK
0.123225084000000,I2C,0x02 + ACK
0.123247368000000,I2C,0x1A + ACK
0.123269652000000,I2C,0x01 + ACK
0.123297980000000,I2C,Setup Write to [0x52] + ACK
0.123321132000000,I2C,0x02 + ACK
0.123343416000000,I2C,0x1A + ACK
0.123365696000000,I2C,0x00 + ACK
0.123394020000000,I2C,Setup Write to [0x52] + ACK
0.123417184000000,I2C,0x02 + ACK
0.123439480000000,I2C,0x19 + ACK
0.123461776000000,I2C,0x00 + ACK
0.123490100000000,I2C,Setup Write to [0x52] + ACK
0.123513252000000,I2C,0x02 + ACK
0.123535532000000,I2C,0x1B + ACK
0.123557812000000,I2C,0x00 + ACK
0.123586152000000,I2C,Setup Write to [0x52] + ACK
0.123609308000000,I2C,0x7F + ACK
0.123631592000000,I2C,0xFF + ACK
0.123653872000000,I2C,0x00 + ACK
0.123682352000000,I2C,Setup Write to [0x52] + ACK
0.123705516000000,I2C,0x7F + ACK
0.123727800000000,I2C,0xFF + ACK
0.123753908000000,I2C,Setup Read to [0x53] + ACK
0.123776336000000,I2C,0x00 + NAK
0.123806124000000,I2C,Setup Write to [0x52] + ACK
0.123829264000000,I2C,0x00 + ACK
0.123851552000000,I2C,0x0C + ACK
0.123873828000000,I2C,0x00 + ACK
0.123902196000000,I2C,Setup Write to [0x52] + ACK
0.123925356000000,I2C,0x7F + ACK
0.123947640000000,I2C,0xFF + ACK
0.123969920000000,I2C,0x01 + ACK
0.123998248000000,I2C,Setup Write to [0x52] + ACK
0.124021416000000,I2C,0x00 + ACK
0.124043704000000,I2C,0x20 + ACK
0.124065992000000,I2C,0x07 + ACK
0.124094308000000,I2C,Setup Write to [0x52] + ACK
0.124117468000000,I2C,0x00 + ACK
0.124139760000000,I2C,0x20 + ACK
0.124162028000000,I2C,0x06 + ACK
0.124190380000000,I2C,Setup Write to [0x52] + ACK
0.124213528000000,I2C,0x7F + ACK
0.124235808000000,I2C,0xFF + ACK
0.124258092000000,I2C,0x09 + ACK
0.124286440000000,I2C,Setup Write to [0x52] + ACK
0.124309600000000,I2C,0x00 + ACK
0.124331892000000,I2C,0x00 + ACK
0.124354184000000,I2C,0xE0 + ACK
0.124376476000000,I2C,0x00 + ACK
0.124398772000000,I2C,0x03 + ACK
0.124421048000000,I2C,0x08 + ACK
0.124443332000000,I2C,0xE0 + ACK